 time            vin             Vr1             i(Vread)        hx              n1              n2              n3              n4              m1              m2              m3              m4              n.x9.xrstdp1.xr2.n1#ngap n.x9.xrstdp2.xr2.n1#ngap n.x9.xrstdp3.xr2.n1#ngap n.x9.xrstdp4.xr2.n1#ngap n.x9.xrstdp5.xr2.n1#ngap n.x9.xrstdp6.xr2.n1#ngap n.x9.xrstdp7.xr2.n1#ngap n.x9.xrstdp8.xr2.n1#ngap n.x9.xrstdp9.xr2.n1#ngap n.x9.xrstdp10.xr2.n1#ngap n.x9.xrstdp11.xr2.n1#ngap n.x9.xrstdp12.xr2.n1#ngap n.x9.xrstdp13.xr2.n1#ngap n.x9.xrstdp14.xr2.n1#ngap n.x9.xrstdp15.xr2.n1#ngap
 0.00000000e+00  1.40000000e+00  2.88616476e-03  8.06740678e-07  7.25841940e-03  2.09509568e-04  4.41613709e-05  2.08457690e-04  4.41816100e-05 -1.06412329e-04  8.73627692e-05 -1.06412294e-04  8.73487334e-05  9.39515515e-01  9.36522280e-01  9.39515774e-01  9.36522302e-01  9.65575996e-01  9.74983576e-01  9.65575988e-01  9.74983599e-01  9.39484162e-01  9.36579728e-01  9.39484162e-01  9.36579767e-01  9.65572199e-01  9.75003609e-01  9.65572200e-01 
 2.00000000e-10  1.40000754e+00  2.88612696e-03  8.06565644e-07  7.25906397e-03  3.20721120e-05  6.70649806e-06  3.21732831e-05  6.78912423e-06 -1.62818108e-05  1.32375190e-05 -1.62818034e-05  1.32353536e-05  9.39514272e-01  9.36512262e-01  9.39514531e-01  9.36512284e-01  9.65574680e-01  9.74979380e-01  9.65574672e-01  9.74979403e-01  9.39482971e-01  9.36569757e-01  9.39482970e-01  9.36569796e-01  9.65570887e-01  9.74999414e-01  9.65570889e-01 
 4.00000000e-10  1.40001508e+00  2.88611865e-03  8.06483182e-07  7.25986414e-03  5.09642184e-06  1.22801961e-06  5.18501355e-06  1.28172464e-06 -2.36288587e-06  2.18226719e-06 -2.36288475e-06  2.18193178e-06  9.39513779e-01  9.36510775e-01  9.39514037e-01  9.36510798e-01  9.65575051e-01  9.74978735e-01  9.65575044e-01  9.74978758e-01  9.39482477e-01  9.36568270e-01  9.39482476e-01  9.36568310e-01  9.65571258e-01  9.74998767e-01  9.65571259e-01 
 8.00000000e-10  1.40003014e+00  2.88611035e-03  8.06413534e-07  7.26126562e-03 -3.13271766e-06 -4.48993336e-07 -3.10869745e-06 -4.16226271e-07  2.01159132e-06 -1.12679427e-06  2.01159289e-06 -1.12656367e-06  9.39513663e-01  9.36510363e-01  9.39513921e-01  9.36510385e-01  9.65575257e-01  9.74978567e-01  9.65575250e-01  9.74978591e-01  9.39482358e-01  9.36567855e-01  9.39482358e-01  9.36567895e-01  9.65571463e-01  9.74998599e-01  9.65571465e-01 
 1.60000000e-09  1.40006026e+00  2.88610262e-03  8.06436375e-07  7.26305074e-03  3.05734772e-06  8.10521611e-07  3.10623985e-06  8.53525512e-07 -1.23593894e-06  1.38029661e-06 -1.23593480e-06  1.38010042e-06  9.39513856e-01  9.36510801e-01  9.39514114e-01  9.36510823e-01  9.65575359e-01  9.74978785e-01  9.65575351e-01  9.74978808e-01  9.39482552e-01  9.36568294e-01  9.39482551e-01  9.36568333e-01  9.65571565e-01  9.74998817e-01  9.65571566e-01 
 3.20000000e-09  1.40012038e+00  2.88609781e-03  8.06442396e-07  7.26438351e-03 -2.33744669e-06 -2.86024929e-07 -2.30695844e-06 -2.51524175e-07  1.57714025e-06 -8.11538623e-07  1.57714007e-06 -8.11364040e-07  9.39513908e-01  9.36510679e-01  9.39514167e-01  9.36510701e-01  9.65575737e-01  9.74978786e-01  9.65575729e-01  9.74978809e-01  9.39482604e-01  9.36568171e-01  9.39482603e-01  9.36568211e-01  9.65571942e-01  9.74998817e-01  9.65571944e-01 
 6.40000000e-09  1.40024026e+00  2.88609798e-03  8.06453302e-07  7.26393582e-03  2.70109764e-06  7.37572368e-07  2.74606427e-06  7.79483105e-07 -1.04406465e-06  1.23856983e-06 -1.04406335e-06  1.23839851e-06  9.39514325e-01  9.36511314e-01  9.39514583e-01  9.36511336e-01  9.65576156e-01  9.74979173e-01  9.65576148e-01  9.74979196e-01  9.39483021e-01  9.36568807e-01  9.39483020e-01  9.36568846e-01  9.65572361e-01  9.74999205e-01  9.65572362e-01 
 1.28000000e-08  1.40047851e+00  2.88609757e-03  8.06452390e-07  7.26172242e-03 -2.17096173e-06 -2.51905014e-07 -2.13869161e-06 -2.16833272e-07  1.48550996e-06 -7.45339362e-07  1.48550752e-06 -7.45174430e-07  9.39514890e-01  9.36511733e-01  9.39515148e-01  9.36511755e-01  9.65576926e-01  9.74979579e-01  9.65576918e-01  9.74979602e-01  9.39483586e-01  9.36569225e-01  9.39483585e-01  9.36569264e-01  9.65573130e-01  9.74999611e-01  9.65573132e-01 
 2.56000000e-08  1.40094893e+00  2.88609778e-03  8.06459373e-07  7.25940523e-03  2.61923798e-06  7.20814022e-07  2.66357816e-06  7.62732408e-07 -1.00028178e-06  1.20589390e-06 -1.00028289e-06  1.20573200e-06  9.39516317e-01  9.36513371e-01  9.39516576e-01  9.36513393e-01  9.65578018e-01  9.74980745e-01  9.65578010e-01  9.74980769e-01  9.39485014e-01  9.36570863e-01  9.39485013e-01  9.36570902e-01  9.65574223e-01  9.75000778e-01  9.65574224e-01 
 4.56000000e-08  1.40166776e+00  2.88609759e-03  8.06460067e-07  7.25825643e-03 -2.12733451e-06 -2.43040408e-07 -2.09410806e-06 -2.07333410e-07  1.46158318e-06 -7.28022561e-07  1.46157956e-06 -7.27855787e-07  9.39518317e-01  9.36515241e-01  9.39518576e-01  9.36515263e-01  9.65579822e-01  9.74982267e-01  9.65579814e-01  9.74982290e-01  9.39487014e-01  9.36572731e-01  9.39487013e-01  9.36572771e-01  9.65576026e-01  9.75002299e-01  9.65576027e-01 
 6.56000000e-08  1.40236686e+00  2.88609811e-03  8.06466131e-07  7.25808985e-03  2.58521663e-06  7.13782029e-07  2.62982723e-06  7.56222065e-07 -9.82016414e-07  1.19227892e-06 -9.82017893e-07  1.19211675e-06  9.39520498e-01  9.36517641e-01  9.39520756e-01  9.36517663e-01  9.65581516e-01  9.74984020e-01  9.65581508e-01  9.74984044e-01  9.39489195e-01  9.36575131e-01  9.39489195e-01  9.36575171e-01  9.65577720e-01  9.75004052e-01  9.65577721e-01 
 8.56000000e-08  1.40304620e+00  2.88609802e-03  8.06466122e-07  7.25807900e-03 -2.09375257e-06 -2.36257545e-07 -2.05954920e-06 -1.99829765e-07  1.44326752e-06 -7.14704827e-07  1.44326698e-06 -7.14544876e-07  9.39522498e-01  9.36519514e-01  9.39522756e-01  9.36519536e-01  9.65583325e-01  9.74985543e-01  9.65583317e-01  9.74985567e-01  9.39491196e-01  9.36577003e-01  9.39491195e-01  9.36577043e-01  9.65579529e-01  9.75005575e-01  9.65579530e-01 
 1.05600000e-07  1.40370579e+00  2.88609857e-03  8.06471825e-07  7.25810247e-03  2.55173287e-06  7.06864287e-07  2.59661375e-06  7.49819872e-07 -9.64025140e-07  1.17887119e-06 -9.64023436e-07  1.17871641e-06  9.39524677e-01  9.36521910e-01  9.39524935e-01  9.36521932e-01  9.65585018e-01  9.74987295e-01  9.65585009e-01  9.74987319e-01  9.39493376e-01  9.36579399e-01  9.39493375e-01  9.36579438e-01  9.65581222e-01  9.75007327e-01  9.65581223e-01 
 1.25600000e-07  1.40434562e+00  2.88609847e-03  8.06471990e-07  7.25812632e-03 -2.06069335e-06 -2.29575782e-07 -2.02552469e-06 -1.92431557e-07  1.42522898e-06 -7.01579285e-07  1.42522803e-06 -7.01425518e-07  9.39526678e-01  9.36523788e-01  9.39526937e-01  9.36523809e-01  9.65586827e-01  9.74988819e-01  9.65586818e-01  9.74988844e-01  9.39495378e-01  9.36581274e-01  9.39495377e-01  9.36581314e-01  9.65583030e-01  9.75008851e-01  9.65583032e-01 
 1.45600000e-07  1.40496570e+00  2.88609902e-03  8.06477519e-07  7.25815542e-03  2.51872081e-06  7.00046779e-07  2.56386467e-06  7.43512457e-07 -9.46302565e-07  1.16565520e-06 -9.46302770e-07  1.16549795e-06  9.39528856e-01  9.36526180e-01  9.39529115e-01  9.36526202e-01  9.65588520e-01  9.74990569e-01  9.65588511e-01  9.74990594e-01  9.39497557e-01  9.36583666e-01  9.39497556e-01  9.36583706e-01  9.65584723e-01  9.75010600e-01  9.65584725e-01 
 1.65600000e-07  1.40556603e+00  2.88609892e-03  8.06477854e-07  7.25817915e-03 -2.02810676e-06 -2.22985570e-07 -1.99198224e-06 -1.85139975e-07  1.40745736e-06 -6.88640678e-07  1.40745489e-06 -6.88484027e-07  9.39530858e-01  9.36528061e-01  9.39531117e-01  9.36528083e-01  9.65590328e-01  9.74992096e-01  9.65590319e-01  9.74992120e-01  9.39499560e-01  9.36585546e-01  9.39499558e-01  9.36585585e-01  9.65586531e-01  9.75012126e-01  9.65586532e-01 
 1.85600000e-07  1.40614661e+00  2.88609946e-03  8.06483199e-07  7.25820813e-03  2.48618428e-06  6.93323601e-07  2.53158456e-06  7.37293865e-07 -9.28843479e-07  1.15262424e-06 -9.28842744e-07  1.15246643e-06  9.39533035e-01  9.36530450e-01  9.39533294e-01  9.36530471e-01  9.65592022e-01  9.74993844e-01  9.65592013e-01  9.74993869e-01  9.39501737e-01  9.36587934e-01  9.39501736e-01  9.36587974e-01  9.65588225e-01  9.75013875e-01  9.65588227e-01 
 2.05600000e-07  1.40670743e+00  2.88609936e-03  8.06483706e-07  7.25823242e-03 -1.99597825e-06 -2.16484316e-07 -1.95891506e-06 -1.77948773e-07  1.38995007e-06 -6.75874886e-07  1.38995098e-06 -6.75721424e-07  9.39535039e-01  9.36532334e-01  9.39535297e-01  9.36532356e-01  9.65593829e-01  9.74995372e-01  9.65593820e-01  9.74995397e-01  9.39503741e-01  9.36589817e-01  9.39503740e-01  9.36589857e-01  9.65590032e-01  9.75015402e-01  9.65590033e-01 
 2.25600000e-07  1.40724851e+00  2.88609991e-03  8.06488897e-07  7.25826091e-03  2.45410878e-06  6.86698474e-07  2.49975656e-06  7.31167087e-07 -9.11639082e-07  1.13976512e-06 -9.11639577e-07  1.13961727e-06  9.39537214e-01  9.36534719e-01  9.39537473e-01  9.36534741e-01  9.65595523e-01  9.74997120e-01  9.65595515e-01  9.74997144e-01  9.39505917e-01  9.36592201e-01  9.39505916e-01  9.36592241e-01  9.65591726e-01  9.75017149e-01  9.65591728e-01 
 2.45600000e-07  1.40776985e+00  2.88609979e-03  8.06489554e-07  7.25828628e-03 -1.96430721e-06 -2.10085486e-07 -1.92630855e-06 -1.70862580e-07  1.37270448e-06 -6.63287760e-07  1.37270431e-06 -6.63138968e-07  9.39539219e-01  9.36536607e-01  9.39539477e-01  9.36536628e-01  9.65597330e-01  9.74998648e-01  9.65597321e-01  9.74998673e-01  9.39507922e-01  9.36594088e-01  9.39507921e-01  9.36594128e-01  9.65593532e-01  9.75018677e-01  9.65593534e-01 
 2.65600000e-07  1.40827145e+00  2.88610034e-03  8.06494606e-07  7.25831288e-03  2.42249309e-06  6.80168733e-07  2.46838098e-06  7.25121061e-07 -8.94692290e-07  1.12709201e-06 -8.94691658e-07  1.12694313e-06  9.39541393e-01  9.36538988e-01  9.39541651e-01  9.36539010e-01  9.65599025e-01  9.75000393e-01  9.65599016e-01  9.75000418e-01  9.39510097e-01  9.36596469e-01  9.39510096e-01  9.36596509e-01  9.65595228e-01  9.75020423e-01  9.65595229e-01 
 2.85600000e-07  1.40875331e+00  2.88610023e-03  8.06495401e-07  7.25833867e-03 -1.93308990e-06 -2.03780182e-07 -1.89417522e-06 -1.63882333e-07  1.35570640e-06 -6.50878091e-07  1.35570688e-06 -6.50731985e-07  9.39543399e-01  9.36540879e-01  9.39543657e-01  9.36540901e-01  9.65600830e-01  9.75001924e-01  9.65600822e-01  9.75001949e-01  9.39512104e-01  9.36598359e-01  9.39512102e-01  9.36598400e-01  9.65597033e-01  9.75021953e-01  9.65597034e-01 
 3.05600000e-07  1.40921545e+00  2.88610077e-03  8.06500294e-07  7.25836631e-03  2.39132004e-06  6.73727158e-07  2.43744777e-06  7.19161712e-07 -8.77999836e-07  1.11459015e-06 -8.77998469e-07  1.11444412e-06  9.39545572e-01  9.36543257e-01  9.39545830e-01  9.36543279e-01  9.65602526e-01  9.75003669e-01  9.65602518e-01  9.75003693e-01  9.39514277e-01  9.36600737e-01  9.39514276e-01  9.36600777e-01  9.65598729e-01  9.75023697e-01  9.65598730e-01 
 3.25600000e-07  1.40965786e+00  2.88610066e-03  8.06501221e-07  7.25839080e-03 -1.90232056e-06 -1.97562474e-07 -1.86249967e-06 -1.57002031e-07  1.33896518e-06 -6.38644590e-07  1.33896136e-06 -6.38498310e-07  9.39547578e-01  9.36545151e-01  9.39547837e-01  9.36545173e-01  9.65604331e-01  9.75005201e-01  9.65604323e-01  9.75005225e-01  9.39516285e-01  9.36602631e-01  9.39516283e-01  9.36602671e-01  9.65600533e-01  9.75025229e-01  9.65600534e-01 
 3.45600000e-07  1.41008056e+00  2.88610120e-03  8.06505992e-07  7.25841808e-03  2.36059225e-06  6.67380481e-07  2.40694900e-06  7.13281758e-07 -8.61553345e-07  1.10226221e-06 -8.61555965e-07  1.10211860e-06  9.39549750e-01  9.36547526e-01  9.39550009e-01  9.36547548e-01  9.65606028e-01  9.75006943e-01  9.65606019e-01  9.75006968e-01  9.39518457e-01  9.36605005e-01  9.39518456e-01  9.36605045e-01  9.65602231e-01  9.75026971e-01  9.65602231e-01 
 3.65600000e-07  1.41048356e+00  2.88610109e-03  8.06507044e-07  7.25844317e-03 -1.87198461e-06 -1.91436881e-07 -1.83127474e-06 -1.50221567e-07  1.32247151e-06 -6.26581324e-07  1.32246853e-06 -6.26434504e-07  9.39551758e-01  9.36549424e-01  9.39552017e-01  9.36549445e-01  9.65607831e-01  9.75008476e-01  9.65607823e-01  9.75008501e-01  9.39520466e-01  9.36606902e-01  9.39520464e-01  9.36606942e-01  9.65604034e-01  9.75028503e-01  9.65604035e-01 
 3.85600000e-07  1.41086686e+00  2.88610164e-03  8.06511684e-07  7.25847012e-03  2.33029876e-06  6.61125842e-07  2.37688098e-06  7.07480027e-07 -8.45355774e-07  1.09010436e-06 -8.45352943e-07  1.08996312e-06  9.39553928e-01  9.36551795e-01  9.39554187e-01  9.36551816e-01  9.65609529e-01  9.75010217e-01  9.65609520e-01  9.75010242e-01  9.39522637e-01  9.36609272e-01  9.39522636e-01  9.36609312e-01  9.65605731e-01  9.75030244e-01  9.65605733e-01 
 4.05600000e-07  1.41123047e+00  2.88610152e-03  8.06512843e-07  7.25849453e-03 -1.84208581e-06 -1.85395242e-07 -1.80049492e-06 -1.43542004e-07  1.30622160e-06 -6.14681631e-07  1.30621790e-06 -6.14541681e-07  9.39555937e-01  9.36553696e-01  9.39556196e-01  9.36553717e-01  9.65611331e-01  9.75011752e-01  9.65611322e-01  9.75011777e-01  9.39524646e-01  9.36611172e-01  9.39524645e-01  9.36611213e-01  9.65607534e-01  9.75031778e-01  9.65607535e-01 
 4.25600000e-07  1.41157441e+00  2.88610207e-03  8.06517383e-07  7.25852166e-03  2.30043657e-06  6.54953831e-07  2.34723119e-06  7.01763028e-07 -8.29397774e-07  1.07811611e-06 -8.29396418e-07  1.07797431e-06  9.39558106e-01  9.36556063e-01  9.39558366e-01  9.36556085e-01  9.65613030e-01  9.75013492e-01  9.65613021e-01  9.75013517e-01  9.39526816e-01  9.36613539e-01  9.39526815e-01  9.36613580e-01  9.65609232e-01  9.75033518e-01  9.65609234e-01 
 4.45600000e-07  1.41189869e+00  2.88610195e-03  8.06518666e-07  7.25854745e-03 -1.81260514e-06 -1.79443004e-07 -1.77015751e-06 -1.36964247e-07  1.29020792e-06 -6.02947811e-07  1.29020811e-06 -6.02808517e-07  9.39560117e-01  9.36557968e-01  9.39560376e-01  9.36557989e-01  9.65614831e-01  9.75015028e-01  9.65614822e-01  9.75015053e-01  9.39528827e-01  9.36615443e-01  9.39528826e-01  9.36615483e-01  9.65611033e-01  9.75035053e-01  9.65611035e-01 
 4.65600000e-07  1.41220331e+00  2.88610249e-03  8.06523105e-07  7.25857478e-03  2.27100005e-06  6.48874293e-07  2.31800144e-06  6.96120710e-07 -8.13675026e-07  1.06629440e-06 -8.13674577e-07  1.06615309e-06  9.39562285e-01  9.36560332e-01  9.39562544e-01  9.36560353e-01  9.65616530e-01  9.75016766e-01  9.65616522e-01  9.75016791e-01  9.39530996e-01  9.36617806e-01  9.39530995e-01  9.36617846e-01  9.65612732e-01  9.75036790e-01  9.65612734e-01 
 4.85600000e-07  1.41248829e+00  2.88610239e-03  8.06524509e-07  7.25859803e-03 -1.78355320e-06 -1.73576674e-07 -1.74025671e-06 -1.30482115e-07  1.27443281e-06 -5.91378143e-07  1.27443255e-06 -5.91243201e-07  9.39564296e-01  9.36562239e-01  9.39564555e-01  9.36562261e-01  9.65618331e-01  9.75018304e-01  9.65618323e-01  9.75018328e-01  9.39533007e-01  9.36619713e-01  9.39533006e-01  9.36619753e-01  9.65614533e-01  9.75038327e-01  9.65614535e-01 
 5.05600000e-07  1.41275365e+00  2.88610293e-03  8.06528840e-07  7.25862565e-03  2.24198369e-06  6.42883731e-07  2.28918445e-06  6.90555761e-07 -7.98185216e-07  1.05463708e-06 -7.98182681e-07  1.05449923e-06  9.39566463e-01  9.36564600e-01  9.39566722e-01  9.36564622e-01  9.65620031e-01  9.75020040e-01  9.65620022e-01  9.75020065e-01  9.39535175e-01  9.36622073e-01  9.39535174e-01  9.36622114e-01  9.65616234e-01  9.75040064e-01  9.65616236e-01 
 5.25600000e-07  1.41299940e+00  2.88610282e-03  8.06530331e-07  7.25865027e-03 -1.75491018e-06 -1.67793633e-07 -1.71078561e-06 -1.24099536e-07  1.25889130e-06 -5.79971597e-07  1.25889416e-06 -5.79837797e-07  9.39568475e-01  9.36566510e-01  9.39568734e-01  9.36566532e-01  9.65621831e-01  9.75021579e-01  9.65621822e-01  9.75021604e-01  9.39537188e-01  9.36623983e-01  9.39537186e-01  9.36624023e-01  9.65618034e-01  9.75041603e-01  9.65618036e-01 
 5.45600000e-07  1.41322555e+00  2.88610336e-03  8.06534566e-07  7.25867738e-03  2.21337397e-06  6.36976822e-07  2.26076535e-06  6.85063814e-07 -7.82925807e-07  1.04313769e-06 -7.82926593e-07  1.04300210e-06  9.39570641e-01  9.36568868e-01  9.39570900e-01  9.36568890e-01  9.65623531e-01  9.75023314e-01  9.65623523e-01  9.75023338e-01  9.39539354e-01  9.36626340e-01  9.39539353e-01  9.36626380e-01  9.65619735e-01  9.75043338e-01  9.65619737e-01 
 5.65600000e-07  1.41343212e+00  2.88610326e-03  8.06536137e-07  7.25870177e-03 -1.72667838e-06 -1.62095284e-07 -1.68174145e-06 -1.17813108e-07  1.24357994e-06 -5.68724861e-07  1.24358043e-06 -5.68590423e-07  9.39572654e-01  9.36570781e-01  9.39572913e-01  9.36570803e-01  9.65625331e-01  9.75024854e-01  9.65625322e-01  9.75024879e-01  9.39541368e-01  9.36628253e-01  9.39541367e-01  9.36628293e-01  9.65621534e-01  9.75044878e-01  9.65621536e-01 
 5.85600000e-07  1.41361912e+00  2.88610380e-03  8.06540282e-07  7.25872832e-03  2.18517040e-06  6.31152078e-07  2.23274524e-06  6.79646966e-07 -7.67893267e-07  1.03179641e-06 -7.67895360e-07  1.03166517e-06  9.39574819e-01  9.36573136e-01  9.39575078e-01  9.36573158e-01  9.65627032e-01  9.75026588e-01  9.65627023e-01  9.75026612e-01  9.39543533e-01  9.36630606e-01  9.39543532e-01  9.36630647e-01  9.65623235e-01  9.75046612e-01  9.65623238e-01 
 6.05600000e-07  1.41378659e+00  2.88610370e-03  8.06541954e-07  7.25875274e-03 -1.69884195e-06 -1.56475660e-07 -1.65311017e-06 -1.11622957e-07  1.22849943e-06 -5.57629641e-07  1.22849897e-06 -5.57498622e-07  9.39576833e-01  9.36575052e-01  9.39577093e-01  9.36575074e-01  9.65628831e-01  9.75028129e-01  9.65628822e-01  9.75028153e-01  9.39545548e-01  9.36632522e-01  9.39545547e-01  9.36632563e-01  9.65625033e-01  9.75048154e-01  9.65625036e-01 
 6.25600000e-07  1.41393452e+00  2.88610424e-03  8.06546002e-07  7.25878057e-03  2.15737056e-06  6.25412894e-07  2.20511843e-06  6.74294253e-07 -7.53085428e-07  1.02061404e-06 -7.53086455e-07  1.02048344e-06  9.39578997e-01  9.36577403e-01  9.39579256e-01  9.36577425e-01  9.65630533e-01  9.75029861e-01  9.65630524e-01  9.75029885e-01  9.39547712e-01  9.36634873e-01  9.39547711e-01  9.36634913e-01  9.65626735e-01  9.75049886e-01  9.65626738e-01 
 6.45600000e-07  1.41406295e+00  2.88610415e-03  8.06547736e-07  7.25880410e-03 -1.67140314e-06 -1.50940225e-07 -1.62489268e-06 -1.05527253e-07  1.21363867e-06 -5.46691154e-07  1.21364383e-06 -5.46561837e-07  9.39581012e-01  9.36579323e-01  9.39581272e-01  9.36579345e-01  9.65632330e-01  9.75031404e-01  9.65632321e-01  9.75031428e-01  9.39549728e-01  9.36636792e-01  9.39549727e-01  9.36636832e-01  9.65628533e-01  9.75051428e-01  9.65628535e-01 
 6.65600000e-07  1.41417189e+00  2.88610469e-03  8.06551720e-07  7.25883101e-03  2.12996641e-06  6.19753646e-07  2.17788020e-06  6.69018496e-07 -7.38496588e-07  1.00958833e-06 -7.38493882e-07  1.00945980e-06  9.39583175e-01  9.36581671e-01  9.39583435e-01  9.36581693e-01  9.65634033e-01  9.75033134e-01  9.65634024e-01  9.75033159e-01  9.39551891e-01  9.36639139e-01  9.39551890e-01  9.36639180e-01  9.65630236e-01  9.75053159e-01  9.65630238e-01 
 6.85600000e-07  1.41426136e+00  2.88610460e-03  8.06553554e-07  7.25885530e-03 -1.64435706e-06 -1.45483677e-07 -1.59708670e-06 -9.95278352e-08  1.19899942e-06 -5.35905237e-07  1.19900096e-06 -5.35777461e-07  9.39585191e-01  9.36583594e-01  9.39585451e-01  9.36583615e-01  9.65635830e-01  9.75034679e-01  9.65635821e-01  9.75034703e-01  9.39553908e-01  9.36641061e-01  9.39553906e-01  9.36641102e-01  9.65632033e-01  9.75054703e-01  9.65632035e-01 
 7.05600000e-07  1.41433139e+00  2.88610514e-03  8.06557475e-07  7.25888124e-03  2.10295059e-06  6.14174876e-07  2.15102083e-06  6.63799415e-07 -7.24127859e-07  9.98713016e-07 -7.24124176e-07  9.98587500e-07  9.39587353e-01  9.36585939e-01  9.39587613e-01  9.36585960e-01  9.65637533e-01  9.75036408e-01  9.65637524e-01  9.75036432e-01  9.39556070e-01  9.36643405e-01  9.39556068e-01  9.36643446e-01  9.65633736e-01  9.75056433e-01  9.65633738e-01 
